
T4EC4 000:294 SEGGER J-Link V5.02f Log File (0001ms, 0268ms total)
T4EC4 000:294 DLL Compiled: Oct  2 2015 20:51:34 (0001ms, 0268ms total)
T4EC4 000:294 Logging started @ 2024-01-04 19:35 (0001ms, 0268ms total)
T4EC4 000:295 JLINK_SetWarnOutHandler(...) (0000ms, 0268ms total)
T4EC4 000:295 JLINK_OpenEx(...)
Firmware: J-Link V9 compiled Dec 13 2022 11:14:50
Hardware: V9.00
S/N: 26017791
Feature(s): RDI, GDB, FlashDL, FlashBP, JFlash  returns O.K. (0264ms, 0532ms total)
T4EC4 000:559 JLINK_SetErrorOutHandler(...) (0000ms, 0532ms total)
T4EC4 000:559 JLINK_ExecCommand("ProjectFile = "D:\单片机\大作业\11.数码管矩阵键盘实验\Project\JLinkSettings.ini"", ...)  returns 0x00 (0000ms, 0532ms total)
T4EC4 000:563 JLINK_ExecCommand("Device = STM32F407ZG", ...)Device "STM32F407ZG" selected.  returns 0x00 (0010ms, 0542ms total)
T4EC4 000:573 JLINK_ExecCommand("DisableConnectionTimeout", ...)  returns 0x01 (0000ms, 0542ms total)
T4EC4 000:573 JLINK_GetHardwareVersion()  returns 0x15F90 (0000ms, 0542ms total)
T4EC4 000:573 JLINK_GetDLLVersion()  returns 50206 (0000ms, 0542ms total)
T4EC4 000:573 JLINK_GetFirmwareString(...) (0000ms, 0542ms total)
T4EC4 000:592 JLINK_GetDLLVersion()  returns 50206 (0000ms, 0542ms total)
T4EC4 000:592 JLINK_GetCompileDateTime() (0000ms, 0542ms total)
T4EC4 000:595 JLINK_GetFirmwareString(...) (0000ms, 0542ms total)
T4EC4 000:597 JLINK_GetHardwareVersion()  returns 0x15F90 (0000ms, 0542ms total)
T4EC4 000:606 JLINK_TIF_Select(JLINKARM_TIF_SWD)  returns 0x00 (0000ms, 0542ms total)
T4EC4 000:606 JLINK_SetSpeed(5000) (0000ms, 0542ms total)
T4EC4 000:606 JLINK_GetId() >0x108 TIF>Found SWD-DP with ID 0x2BA01477 >0x0D TIF> >0x28 TIF> >0x0D TIF> >0x28 TIF> >0x0D TIF> >0x21 TIF> >0x0D TIF> >0x28 TIF> >0x0D TIF> >0x28 TIF> >0x0D TIF> >0x28 TIF> >0x0D TIF> >0x21 TIF> >0x0D TIF> >0x21 TIF> >0x0D TIF> >0x28 TIF> >0x0D TIF> >0x21 TIF> >0x0D TIF> >0x21 TIF> >0x0D TIF> >0x28 TIF> >0x0D TIF> >0x21 TIF> >0x0D TIF> >0x21 TIF> >0x0D TIF> >0x28 TIF> >0x0D TIF> >0x21 TIF> >0x0D TIF> >0x21 TIF> >0x0D TIF> >0x28 TIF> >0x0D TIF> >0x21 TIF> >0x0D TIF>
 >0x21 TIF> >0x108 TIF>Found SWD-DP with ID 0x2BA01477 >0x0D TIF> >0x21 TIF> >0x0D TIF> >0x28 TIF> >0x0D TIF> >0x28 TIF> >0x0D TIF> >0x21 TIF> >0x0D TIF> >0x28 TIF> >0x0D TIF> >0x21 TIF> >0x0D TIF> >0x21 TIF> >0x0D TIF> >0x21 TIF> >0x0D TIF> >0x21 TIF> >0x0D TIF> >0x28 TIF> >0x0D TIF> >0x28 TIF> >0x0D TIF> >0x21 TIF> >0x0D TIF> >0x28 TIF> >0x0D TIF> >0x28 TIF> >0x0D TIF> >0x28 TIF> >0x0D TIF> >0x21 TIF> >0x0D TIF> >0x21 TIF> >0x0D TIF> >0x28 TIF> >0x0D TIF> >0x21 TIF> >0x0D TIF> >0x21 TIF>
Found Cortex-M4 r0p1, Little endian. -- CPU_ReadMem(4 bytes @ 0xE000EDF0) -- CPU_ReadMem(4 bytes @ 0xE0002000)FPUnit: 6 code (BP) slots and 2 literal slots -- CPU_ReadMem(4 bytes @ 0xE000EDFC) -- CPU_ReadMem(4 bytes @ 0xE0001000) -- CPU_WriteMem(4 bytes @ 0xE0001000) -- CPU_ReadMem(4 bytes @ 0xE000ED88) -- CPU_WriteMem(4 bytes @ 0xE000ED88) -- CPU_ReadMem(4 bytes @ 0xE000ED88) -- CPU_WriteMem(4 bytes @ 0xE000ED88)CoreSight components:ROMTbl 0 @ E00FF000 -- CPU_ReadMem(16 bytes @ 0xE00FF000)
 -- CPU_ReadMem(16 bytes @ 0xE000EFF0) -- CPU_ReadMem(16 bytes @ 0xE000EFE0)ROMTbl 0 [0]: FFF0F000, CID: B105E00D, PID: 000BB00C SCS -- CPU_ReadMem(16 bytes @ 0xE0001FF0) -- CPU_ReadMem(16 bytes @ 0xE0001FE0)ROMTbl 0 [1]: FFF02000, CID: B105E00D, PID: 003BB002 DWT -- CPU_ReadMem(16 bytes @ 0xE0002FF0) -- CPU_ReadMem(16 bytes @ 0xE0002FE0)ROMTbl 0 [2]: FFF03000, CID: B105E00D, PID: 002BB003 FPB -- CPU_ReadMem(16 bytes @ 0xE0000FF0) -- CPU_ReadMem(16 bytes @ 0xE0000FE0)
ROMTbl 0 [3]: FFF01000, CID: B105E00D, PID: 003BB001 ITM -- CPU_ReadMem(16 bytes @ 0xE00FF010) -- CPU_ReadMem(16 bytes @ 0xE0040FF0) -- CPU_ReadMem(16 bytes @ 0xE0040FE0)ROMTbl 0 [4]: FFF41000, CID: B105900D, PID: 000BB9A1 TPIU -- CPU_ReadMem(16 bytes @ 0xE0041FF0) -- CPU_ReadMem(16 bytes @ 0xE0041FE0)ROMTbl 0 [5]: FFF42000, CID: B105900D, PID: 000BB925 ETM >0x0D TIF> >0x21 TIF>  returns 0x2BA01477 (0048ms, 0590ms total)
T4EC4 000:654 JLINK_GetDLLVersion()  returns 50206 (0000ms, 0590ms total)
T4EC4 000:654 JLINK_CORE_GetFound()  returns 0xE0000FF (0000ms, 0590ms total)
T4EC4 000:654 JLINK_GetDebugInfo(0x100) -- Value=0xE00FF003  returns 0x00 (0000ms, 0590ms total)
T4EC4 000:656 JLINK_GetDebugInfo(0x100) -- Value=0xE00FF003  returns 0x00 (0000ms, 0590ms total)
T4EC4 000:656 JLINK_GetDebugInfo(0x101) -- Value=0xE0041000  returns 0x00 (0000ms, 0590ms total)
T4EC4 000:656 JLINK_GetDebugInfo(0x102) -- Value=0x00000000  returns 0x00 (0000ms, 0590ms total)
T4EC4 000:656 JLINK_GetDebugInfo(0x103) -- Value=0xE0040000  returns 0x00 (0000ms, 0590ms total)
T4EC4 000:656 JLINK_GetDebugInfo(0x104) -- Value=0xE0000000  returns 0x00 (0000ms, 0590ms total)
T4EC4 000:656 JLINK_GetDebugInfo(0x105) -- Value=0xE0001000  returns 0x00 (0000ms, 0590ms total)
T4EC4 000:656 JLINK_GetDebugInfo(0x106) -- Value=0xE0002000  returns 0x00 (0000ms, 0590ms total)
T4EC4 000:656 JLINK_GetDebugInfo(0x107) -- Value=0xE000E000  returns 0x00 (0000ms, 0590ms total)
T4EC4 000:656 JLINK_GetDebugInfo(0x10C) -- Value=0xE000EDF0  returns 0x00 (0000ms, 0590ms total)
T4EC4 000:656 JLINK_ReadMemU32(0xE000EF40, 0x0001 Items, ...) -- CPU is running -- CPU_ReadMem(4 bytes @ 0xE000EF40) - Data: 21 00 11 10  returns 0x01 (0001ms, 0591ms total)
T4EC4 000:657 JLINK_ReadMemU32(0xE000EF44, 0x0001 Items, ...) -- CPU is running -- CPU_ReadMem(4 bytes @ 0xE000EF44) - Data: 11 00 00 11  returns 0x01 (0000ms, 0591ms total)
T4EC4 000:657 JLINK_ReadMemU32(0xE000ED00, 0x0001 Items, ...) -- CPU is running -- CPU_ReadMem(4 bytes @ 0xE000ED00) - Data: 41 C2 0F 41  returns 0x01 (0000ms, 0591ms total)
T4EC4 000:657 JLINK_SetResetType(JLINKARM_RESET_TYPE_NORMAL)  returns JLINKARM_RESET_TYPE_NORMAL (0000ms, 0591ms total)
T4EC4 000:657 JLINK_Reset() -- CPU is running -- CPU_WriteMem(4 bytes @ 0xE000EDF0) -- CPU is running -- CPU_WriteMem(4 bytes @ 0xE000EDFC) >0x35 TIF> -- CPU is running -- CPU_WriteMem(4 bytes @ 0xE000ED0C) -- CPU is running -- CPU_ReadMem(4 bytes @ 0xE000EDF0) -- CPU is running -- CPU_ReadMem(4 bytes @ 0xE000EDF0) -- CPU is running -- CPU_WriteMem(4 bytes @ 0xE000EDF0) -- CPU is running -- CPU_WriteMem(4 bytes @ 0xE000EDFC) -- CPU is running -- CPU_ReadMem(4 bytes @ 0xE000EDF0)
 -- CPU_WriteMem(4 bytes @ 0xE0002000) -- CPU_ReadMem(4 bytes @ 0xE000EDFC) -- CPU_ReadMem(4 bytes @ 0xE0001000) (0014ms, 0605ms total)
T4EC4 000:671 JLINK_Halt()  returns 0x00 (0000ms, 0605ms total)
T4EC4 000:671 JLINK_IsHalted()  returns TRUE (0000ms, 0605ms total)
T4EC4 000:671 JLINK_ReadMemU32(0xE000EDF0, 0x0001 Items, ...) -- CPU_ReadMem(4 bytes @ 0xE000EDF0) - Data: 03 00 03 00  returns 0x01 (0001ms, 0606ms total)
T4EC4 000:672 JLINK_WriteU32(0xE000EDF0, 0xA05F0003) -- CPU_WriteMem(4 bytes @ 0xE000EDF0)  returns 0x00 (0000ms, 0606ms total)
T4EC4 000:672 JLINK_WriteU32(0xE000EDFC, 0x01000000) -- CPU_WriteMem(4 bytes @ 0xE000EDFC)  returns 0x00 (0000ms, 0606ms total)
T4EC4 000:681 JLINK_GetHWStatus(...)  returns 0x00 (0000ms, 0606ms total)
T4EC4 000:688 JLINK_GetNumBPUnits(Type = 0xFFFFFF00)  returns 0x06 (0000ms, 0606ms total)
T4EC4 000:688 JLINK_GetNumBPUnits(Type = 0xF0)  returns 0x2000 (0000ms, 0606ms total)
T4EC4 000:688 JLINK_GetNumWPUnits()  returns 0x04 (0000ms, 0606ms total)
T4EC4 000:694 JLINK_GetSpeed()  returns 0xFA0 (0000ms, 0606ms total)
T4EC4 000:698 JLINK_ReadMemU32(0xE000E004, 0x0001 Items, ...) -- CPU_ReadMem(4 bytes @ 0xE000E004) - Data: 02 00 00 00  returns 0x01 (0000ms, 0606ms total)
T4EC4 000:698 JLINK_ReadMemU32(0xE000E004, 0x0001 Items, ...) -- CPU_ReadMem(4 bytes @ 0xE000E004) - Data: 02 00 00 00  returns 0x01 (0000ms, 0606ms total)
T4EC4 000:698 JLINK_WriteMem(0xE0001000, 0x001C Bytes, ...) - Data: 01 00 00 00 00 00 00 00 00 00 00 00 00 00 00 00 ... -- CPU_WriteMem(28 bytes @ 0xE0001000)  returns 0x1C (0001ms, 0607ms total)
T4EC4 000:699 JLINK_ReadMem (0xE0001000, 0x001C Bytes, ...) -- CPU_ReadMem(28 bytes @ 0xE0001000) - Data: 01 00 00 40 00 00 00 00 00 00 00 00 00 00 00 00 ...  returns 0x00 (0000ms, 0607ms total)
T4EC4 000:699 JLINK_Halt()  returns 0x00 (0000ms, 0607ms total)
T4EC4 000:699 JLINK_IsHalted()  returns TRUE (0000ms, 0607ms total)
T4EC4 000:702 JLINK_WriteMem(0x20000000, 0x0180 Bytes, ...) - Data: 00 BE 0A E0 0D 78 2D 06 68 40 08 24 40 00 00 D3 ... -- CPU_WriteMem(384 bytes @ 0x20000000)  returns 0x180 (0002ms, 0609ms total)
T4EC4 000:704 JLINK_WriteReg(R0, 0x08000000)  returns 0x00 (0000ms, 0609ms total)
T4EC4 000:704 JLINK_WriteReg(R1, 0x00B71B00)  returns 0x00 (0000ms, 0609ms total)
T4EC4 000:704 JLINK_WriteReg(R2, 0x00000001)  returns 0x00 (0000ms, 0609ms total)
T4EC4 000:704 JLINK_WriteReg(R3, 0x00000000)  returns 0x00 (0000ms, 0609ms total)
T4EC4 000:704 JLINK_WriteReg(R4, 0x00000000)  returns 0x00 (0000ms, 0609ms total)
T4EC4 000:704 JLINK_WriteReg(R5, 0x00000000)  returns 0x00 (0000ms, 0609ms total)
T4EC4 000:704 JLINK_WriteReg(R6, 0x00000000)  returns 0x00 (0000ms, 0609ms total)
T4EC4 000:704 JLINK_WriteReg(R7, 0x00000000)  returns 0x00 (0000ms, 0609ms total)
T4EC4 000:704 JLINK_WriteReg(R8, 0x00000000)  returns 0x00 (0000ms, 0609ms total)
T4EC4 000:704 JLINK_WriteReg(R9, 0x2000017C)  returns 0x00 (0000ms, 0609ms total)
T4EC4 000:704 JLINK_WriteReg(R10, 0x00000000)  returns 0x00 (0000ms, 0609ms total)
T4EC4 000:704 JLINK_WriteReg(R11, 0x00000000)  returns 0x00 (0000ms, 0609ms total)
T4EC4 000:704 JLINK_WriteReg(R12, 0x00000000)  returns 0x00 (0000ms, 0609ms total)
T4EC4 000:704 JLINK_WriteReg(R13 (SP), 0x20001000)  returns 0x00 (0000ms, 0609ms total)
T4EC4 000:704 JLINK_WriteReg(R14, 0x20000001)  returns 0x00 (0000ms, 0609ms total)
T4EC4 000:704 JLINK_WriteReg(R15 (PC), 0x20000054)  returns 0x00 (0000ms, 0609ms total)
T4EC4 000:704 JLINK_WriteReg(XPSR, 0x01000000)  returns 0x00 (0000ms, 0609ms total)
T4EC4 000:704 JLINK_WriteReg(MSP, 0x20001000)  returns 0x00 (0000ms, 0609ms total)
T4EC4 000:704 JLINK_WriteReg(PSP, 0x20001000)  returns 0x00 (0000ms, 0609ms total)
T4EC4 000:704 JLINK_WriteReg(CFBP, 0x00000000)  returns 0x00 (0000ms, 0609ms total)
T4EC4 000:704 JLINK_SetBPEx(Addr = 0x20000000, Type = 0xFFFFFFF2) -- CPU_ReadMem(2 bytes @ 0x20000000)  returns 0x00000001 (0001ms, 0610ms total)
T4EC4 000:705 JLINK_Go() -- CPU_WriteMem(2 bytes @ 0x20000000) -- CPU_ReadMem(4 bytes @ 0xE0001000) -- CPU_WriteMem(4 bytes @ 0xE0002008) -- CPU_WriteMem(4 bytes @ 0xE000200C) -- CPU_WriteMem(4 bytes @ 0xE0002010) -- CPU_WriteMem(4 bytes @ 0xE0002014) -- CPU_WriteMem(4 bytes @ 0xE0002018) -- CPU_WriteMem(4 bytes @ 0xE000201C) -- CPU_WriteMem(4 bytes @ 0xE0001004) (0002ms, 0612ms total)
T4EC4 000:707 JLINK_IsHalted() -- CPU_ReadMem(2 bytes @ 0x20000000)  returns TRUE (0002ms, 0614ms total)
T4EC4 000:709 JLINK_ReadReg(R15 (PC))  returns 0x20000000 (0000ms, 0612ms total)
T4EC4 000:709 JLINK_ClrBPEx(BPHandle = 0x00000001)  returns 0x00 (0000ms, 0612ms total)
T4EC4 000:709 JLINK_ReadReg(R0)  returns 0x00000000 (0000ms, 0612ms total)
T4EC4 000:710 JLINK_WriteReg(R0, 0x08000000)  returns 0x00 (0000ms, 0612ms total)
T4EC4 000:710 JLINK_WriteReg(R1, 0x00004000)  returns 0x00 (0000ms, 0612ms total)
T4EC4 000:710 JLINK_WriteReg(R2, 0x000000FF)  returns 0x00 (0000ms, 0612ms total)
T4EC4 000:710 JLINK_WriteReg(R3, 0x00000000)  returns 0x00 (0000ms, 0612ms total)
T4EC4 000:710 JLINK_WriteReg(R4, 0x00000000)  returns 0x00 (0000ms, 0612ms total)
T4EC4 000:710 JLINK_WriteReg(R5, 0x00000000)  returns 0x00 (0000ms, 0612ms total)
T4EC4 000:710 JLINK_WriteReg(R6, 0x00000000)  returns 0x00 (0000ms, 0612ms total)
T4EC4 000:710 JLINK_WriteReg(R7, 0x00000000)  returns 0x00 (0000ms, 0612ms total)
T4EC4 000:710 JLINK_WriteReg(R8, 0x00000000)  returns 0x00 (0000ms, 0612ms total)
T4EC4 000:710 JLINK_WriteReg(R9, 0x2000017C)  returns 0x00 (0000ms, 0612ms total)
T4EC4 000:710 JLINK_WriteReg(R10, 0x00000000)  returns 0x00 (0000ms, 0612ms total)
T4EC4 000:710 JLINK_WriteReg(R11, 0x00000000)  returns 0x00 (0000ms, 0612ms total)
T4EC4 000:710 JLINK_WriteReg(R12, 0x00000000)  returns 0x00 (0000ms, 0612ms total)
T4EC4 000:710 JLINK_WriteReg(R13 (SP), 0x20001000)  returns 0x00 (0000ms, 0612ms total)
T4EC4 000:710 JLINK_WriteReg(R14, 0x20000001)  returns 0x00 (0000ms, 0612ms total)
T4EC4 000:710 JLINK_WriteReg(R15 (PC), 0x20000020)  returns 0x00 (0000ms, 0612ms total)
T4EC4 000:710 JLINK_WriteReg(XPSR, 0x01000000)  returns 0x00 (0000ms, 0612ms total)
T4EC4 000:710 JLINK_WriteReg(MSP, 0x20001000)  returns 0x00 (0000ms, 0612ms total)
T4EC4 000:710 JLINK_WriteReg(PSP, 0x20001000)  returns 0x00 (0000ms, 0612ms total)
T4EC4 000:710 JLINK_WriteReg(CFBP, 0x00000000)  returns 0x00 (0000ms, 0612ms total)
T4EC4 000:710 JLINK_SetBPEx(Addr = 0x20000000, Type = 0xFFFFFFF2)  returns 0x00000002 (0000ms, 0612ms total)
T4EC4 000:710 JLINK_Go() -- CPU_ReadMem(4 bytes @ 0xE0001000) (0001ms, 0613ms total)
T4EC4 000:711 JLINK_IsHalted()  returns FALSE (0001ms, 0614ms total)
T4EC4 000:742 JLINK_IsHalted() -- CPU_ReadMem(2 bytes @ 0x20000000)  returns TRUE (0002ms, 0615ms total)
T4EC4 000:744 JLINK_ReadReg(R15 (PC))  returns 0x20000000 (0000ms, 0613ms total)
T4EC4 000:744 JLINK_ClrBPEx(BPHandle = 0x00000002)  returns 0x00 (0000ms, 0613ms total)
T4EC4 000:744 JLINK_ReadReg(R0)  returns 0x00000000 (0000ms, 0613ms total)
T4EC4 000:745 JLINK_WriteReg(R0, 0x08004000)  returns 0x00 (0000ms, 0613ms total)
T4EC4 000:745 JLINK_WriteReg(R1, 0x00004000)  returns 0x00 (0000ms, 0613ms total)
T4EC4 000:745 JLINK_WriteReg(R2, 0x000000FF)  returns 0x00 (0000ms, 0613ms total)
T4EC4 000:745 JLINK_WriteReg(R3, 0x00000000)  returns 0x00 (0000ms, 0613ms total)
T4EC4 000:745 JLINK_WriteReg(R4, 0x00000000)  returns 0x00 (0000ms, 0613ms total)
T4EC4 000:745 JLINK_WriteReg(R5, 0x00000000)  returns 0x00 (0000ms, 0613ms total)
T4EC4 000:745 JLINK_WriteReg(R6, 0x00000000)  returns 0x00 (0000ms, 0613ms total)
T4EC4 000:745 JLINK_WriteReg(R7, 0x00000000)  returns 0x00 (0000ms, 0613ms total)
T4EC4 000:745 JLINK_WriteReg(R8, 0x00000000)  returns 0x00 (0000ms, 0613ms total)
T4EC4 000:745 JLINK_WriteReg(R9, 0x2000017C)  returns 0x00 (0000ms, 0613ms total)
T4EC4 000:745 JLINK_WriteReg(R10, 0x00000000)  returns 0x00 (0000ms, 0613ms total)
T4EC4 000:745 JLINK_WriteReg(R11, 0x00000000)  returns 0x00 (0000ms, 0613ms total)
T4EC4 000:745 JLINK_WriteReg(R12, 0x00000000)  returns 0x00 (0000ms, 0613ms total)
T4EC4 000:745 JLINK_WriteReg(R13 (SP), 0x20001000)  returns 0x00 (0000ms, 0613ms total)
T4EC4 000:745 JLINK_WriteReg(R14, 0x20000001)  returns 0x00 (0000ms, 0613ms total)
T4EC4 000:745 JLINK_WriteReg(R15 (PC), 0x20000020)  returns 0x00 (0000ms, 0613ms total)
T4EC4 000:745 JLINK_WriteReg(XPSR, 0x01000000)  returns 0x00 (0000ms, 0613ms total)
T4EC4 000:745 JLINK_WriteReg(MSP, 0x20001000)  returns 0x00 (0000ms, 0613ms total)
T4EC4 000:745 JLINK_WriteReg(PSP, 0x20001000)  returns 0x00 (0000ms, 0613ms total)
T4EC4 000:745 JLINK_WriteReg(CFBP, 0x00000000)  returns 0x00 (0000ms, 0613ms total)
T4EC4 000:745 JLINK_SetBPEx(Addr = 0x20000000, Type = 0xFFFFFFF2)  returns 0x00000003 (0000ms, 0613ms total)
T4EC4 000:745 JLINK_Go() -- CPU_ReadMem(4 bytes @ 0xE0001000) (0001ms, 0614ms total)
T4EC4 000:746 JLINK_IsHalted()  returns FALSE (0000ms, 0614ms total)
T4EC4 000:748 JLINK_IsHalted()  returns FALSE (0000ms, 0614ms total)
T4EC4 000:750 JLINK_IsHalted()  returns FALSE (0000ms, 0614ms total)
T4EC4 000:752 JLINK_IsHalted()  returns FALSE (0000ms, 0614ms total)
T4EC4 000:754 JLINK_IsHalted()  returns FALSE (0000ms, 0614ms total)
T4EC4 000:756 JLINK_IsHalted()  returns FALSE (0000ms, 0614ms total)
T4EC4 000:758 JLINK_IsHalted()  returns FALSE (0000ms, 0614ms total)
T4EC4 000:759 JLINK_IsHalted()  returns FALSE (0000ms, 0614ms total)
T4EC4 000:761 JLINK_IsHalted() -- CPU_ReadMem(2 bytes @ 0x20000000)  returns TRUE (0002ms, 0616ms total)
T4EC4 000:763 JLINK_ReadReg(R15 (PC))  returns 0x20000000 (0000ms, 0614ms total)
T4EC4 000:763 JLINK_ClrBPEx(BPHandle = 0x00000003)  returns 0x00 (0000ms, 0614ms total)
T4EC4 000:763 JLINK_ReadReg(R0)  returns 0x00000000 (0000ms, 0614ms total)
T4EC4 000:763 JLINK_WriteReg(R0, 0x08008000)  returns 0x00 (0000ms, 0614ms total)
T4EC4 000:763 JLINK_WriteReg(R1, 0x00004000)  returns 0x00 (0000ms, 0614ms total)
T4EC4 000:763 JLINK_WriteReg(R2, 0x000000FF)  returns 0x00 (0000ms, 0614ms total)
T4EC4 000:763 JLINK_WriteReg(R3, 0x00000000)  returns 0x00 (0000ms, 0614ms total)
T4EC4 000:763 JLINK_WriteReg(R4, 0x00000000)  returns 0x00 (0000ms, 0614ms total)
T4EC4 000:763 JLINK_WriteReg(R5, 0x00000000)  returns 0x00 (0000ms, 0614ms total)
T4EC4 000:763 JLINK_WriteReg(R6, 0x00000000)  returns 0x00 (0000ms, 0614ms total)
T4EC4 000:763 JLINK_WriteReg(R7, 0x00000000)  returns 0x00 (0000ms, 0614ms total)
T4EC4 000:763 JLINK_WriteReg(R8, 0x00000000)  returns 0x00 (0000ms, 0614ms total)
T4EC4 000:763 JLINK_WriteReg(R9, 0x2000017C)  returns 0x00 (0000ms, 0614ms total)
T4EC4 000:763 JLINK_WriteReg(R10, 0x00000000)  returns 0x00 (0001ms, 0615ms total)
T4EC4 000:764 JLINK_WriteReg(R11, 0x00000000)  returns 0x00 (0000ms, 0615ms total)
T4EC4 000:764 JLINK_WriteReg(R12, 0x00000000)  returns 0x00 (0000ms, 0615ms total)
T4EC4 000:764 JLINK_WriteReg(R13 (SP), 0x20001000)  returns 0x00 (0000ms, 0615ms total)
T4EC4 000:764 JLINK_WriteReg(R14, 0x20000001)  returns 0x00 (0000ms, 0615ms total)
T4EC4 000:764 JLINK_WriteReg(R15 (PC), 0x20000020)  returns 0x00 (0000ms, 0615ms total)
T4EC4 000:764 JLINK_WriteReg(XPSR, 0x01000000)  returns 0x00 (0000ms, 0615ms total)
T4EC4 000:764 JLINK_WriteReg(MSP, 0x20001000)  returns 0x00 (0000ms, 0615ms total)
T4EC4 000:764 JLINK_WriteReg(PSP, 0x20001000)  returns 0x00 (0000ms, 0615ms total)
T4EC4 000:764 JLINK_WriteReg(CFBP, 0x00000000)  returns 0x00 (0000ms, 0615ms total)
T4EC4 000:764 JLINK_SetBPEx(Addr = 0x20000000, Type = 0xFFFFFFF2)  returns 0x00000004 (0000ms, 0615ms total)
T4EC4 000:764 JLINK_Go() -- CPU_ReadMem(4 bytes @ 0xE0001000) (0001ms, 0616ms total)
T4EC4 000:765 JLINK_IsHalted()  returns FALSE (0000ms, 0616ms total)
T4EC4 000:767 JLINK_IsHalted()  returns FALSE (0000ms, 0616ms total)
T4EC4 000:769 JLINK_IsHalted()  returns FALSE (0000ms, 0616ms total)
T4EC4 000:772 JLINK_IsHalted()  returns FALSE (0000ms, 0616ms total)
T4EC4 000:774 JLINK_IsHalted()  returns FALSE (0000ms, 0616ms total)
T4EC4 000:776 JLINK_IsHalted()  returns FALSE (0000ms, 0616ms total)
T4EC4 000:779 JLINK_IsHalted()  returns FALSE (0000ms, 0616ms total)
T4EC4 000:781 JLINK_IsHalted() -- CPU_ReadMem(2 bytes @ 0x20000000)  returns TRUE (0002ms, 0618ms total)
T4EC4 000:783 JLINK_ReadReg(R15 (PC))  returns 0x20000000 (0000ms, 0616ms total)
T4EC4 000:783 JLINK_ClrBPEx(BPHandle = 0x00000004)  returns 0x00 (0000ms, 0616ms total)
T4EC4 000:783 JLINK_ReadReg(R0)  returns 0x00000000 (0000ms, 0616ms total)
T4EC4 000:783 JLINK_WriteReg(R0, 0x0800C000)  returns 0x00 (0000ms, 0616ms total)
T4EC4 000:783 JLINK_WriteReg(R1, 0x00004000)  returns 0x00 (0000ms, 0616ms total)
T4EC4 000:783 JLINK_WriteReg(R2, 0x000000FF)  returns 0x00 (0000ms, 0616ms total)
T4EC4 000:783 JLINK_WriteReg(R3, 0x00000000)  returns 0x00 (0000ms, 0616ms total)
T4EC4 000:783 JLINK_WriteReg(R4, 0x00000000)  returns 0x00 (0000ms, 0616ms total)
T4EC4 000:783 JLINK_WriteReg(R5, 0x00000000)  returns 0x00 (0000ms, 0616ms total)
T4EC4 000:783 JLINK_WriteReg(R6, 0x00000000)  returns 0x00 (0000ms, 0616ms total)
T4EC4 000:783 JLINK_WriteReg(R7, 0x00000000)  returns 0x00 (0000ms, 0616ms total)
T4EC4 000:783 JLINK_WriteReg(R8, 0x00000000)  returns 0x00 (0001ms, 0617ms total)
T4EC4 000:784 JLINK_WriteReg(R9, 0x2000017C)  returns 0x00 (0000ms, 0617ms total)
T4EC4 000:784 JLINK_WriteReg(R10, 0x00000000)  returns 0x00 (0000ms, 0617ms total)
T4EC4 000:784 JLINK_WriteReg(R11, 0x00000000)  returns 0x00 (0000ms, 0617ms total)
T4EC4 000:784 JLINK_WriteReg(R12, 0x00000000)  returns 0x00 (0000ms, 0617ms total)
T4EC4 000:784 JLINK_WriteReg(R13 (SP), 0x20001000)  returns 0x00 (0000ms, 0617ms total)
T4EC4 000:784 JLINK_WriteReg(R14, 0x20000001)  returns 0x00 (0000ms, 0617ms total)
T4EC4 000:784 JLINK_WriteReg(R15 (PC), 0x20000020)  returns 0x00 (0000ms, 0617ms total)
T4EC4 000:784 JLINK_WriteReg(XPSR, 0x01000000)  returns 0x00 (0000ms, 0617ms total)
T4EC4 000:784 JLINK_WriteReg(MSP, 0x20001000)  returns 0x00 (0000ms, 0617ms total)
T4EC4 000:784 JLINK_WriteReg(PSP, 0x20001000)  returns 0x00 (0000ms, 0617ms total)
T4EC4 000:784 JLINK_WriteReg(CFBP, 0x00000000)  returns 0x00 (0000ms, 0617ms total)
T4EC4 000:784 JLINK_SetBPEx(Addr = 0x20000000, Type = 0xFFFFFFF2)  returns 0x00000005 (0000ms, 0617ms total)
T4EC4 000:784 JLINK_Go() -- CPU_ReadMem(4 bytes @ 0xE0001000) (0001ms, 0618ms total)
T4EC4 000:785 JLINK_IsHalted()  returns FALSE (0000ms, 0618ms total)
T4EC4 000:787 JLINK_IsHalted()  returns FALSE (0000ms, 0618ms total)
T4EC4 000:789 JLINK_IsHalted()  returns FALSE (0000ms, 0618ms total)
T4EC4 000:791 JLINK_IsHalted()  returns FALSE (0000ms, 0618ms total)
T4EC4 000:794 JLINK_IsHalted()  returns FALSE (0000ms, 0618ms total)
T4EC4 000:797 JLINK_IsHalted()  returns FALSE (0000ms, 0618ms total)
T4EC4 000:798 JLINK_IsHalted()  returns FALSE (0000ms, 0618ms total)
T4EC4 000:800 JLINK_IsHalted() -- CPU_ReadMem(2 bytes @ 0x20000000)  returns TRUE (0002ms, 0620ms total)
T4EC4 000:802 JLINK_ReadReg(R15 (PC))  returns 0x20000000 (0000ms, 0618ms total)
T4EC4 000:802 JLINK_ClrBPEx(BPHandle = 0x00000005)  returns 0x00 (0000ms, 0618ms total)
T4EC4 000:802 JLINK_ReadReg(R0)  returns 0x00000000 (0000ms, 0618ms total)
T4EC4 000:802 JLINK_WriteReg(R0, 0x08010000)  returns 0x00 (0000ms, 0618ms total)
T4EC4 000:802 JLINK_WriteReg(R1, 0x00010000)  returns 0x00 (0000ms, 0618ms total)
T4EC4 000:802 JLINK_WriteReg(R2, 0x000000FF)  returns 0x00 (0000ms, 0618ms total)
T4EC4 000:802 JLINK_WriteReg(R3, 0x00000000)  returns 0x00 (0000ms, 0618ms total)
T4EC4 000:802 JLINK_WriteReg(R4, 0x00000000)  returns 0x00 (0000ms, 0618ms total)
T4EC4 000:803 JLINK_WriteReg(R5, 0x00000000)  returns 0x00 (0000ms, 0618ms total)
T4EC4 000:803 JLINK_WriteReg(R6, 0x00000000)  returns 0x00 (0000ms, 0618ms total)
T4EC4 000:803 JLINK_WriteReg(R7, 0x00000000)  returns 0x00 (0000ms, 0618ms total)
T4EC4 000:803 JLINK_WriteReg(R8, 0x00000000)  returns 0x00 (0000ms, 0618ms total)
T4EC4 000:803 JLINK_WriteReg(R9, 0x2000017C)  returns 0x00 (0000ms, 0618ms total)
T4EC4 000:803 JLINK_WriteReg(R10, 0x00000000)  returns 0x00 (0000ms, 0618ms total)
T4EC4 000:803 JLINK_WriteReg(R11, 0x00000000)  returns 0x00 (0000ms, 0618ms total)
T4EC4 000:803 JLINK_WriteReg(R12, 0x00000000)  returns 0x00 (0000ms, 0618ms total)
T4EC4 000:803 JLINK_WriteReg(R13 (SP), 0x20001000)  returns 0x00 (0000ms, 0618ms total)
T4EC4 000:803 JLINK_WriteReg(R14, 0x20000001)  returns 0x00 (0000ms, 0618ms total)
T4EC4 000:803 JLINK_WriteReg(R15 (PC), 0x20000020)  returns 0x00 (0000ms, 0618ms total)
T4EC4 000:803 JLINK_WriteReg(XPSR, 0x01000000)  returns 0x00 (0000ms, 0618ms total)
T4EC4 000:803 JLINK_WriteReg(MSP, 0x20001000)  returns 0x00 (0000ms, 0618ms total)
T4EC4 000:803 JLINK_WriteReg(PSP, 0x20001000)  returns 0x00 (0000ms, 0618ms total)
T4EC4 000:803 JLINK_WriteReg(CFBP, 0x00000000)  returns 0x00 (0000ms, 0618ms total)
T4EC4 000:803 JLINK_SetBPEx(Addr = 0x20000000, Type = 0xFFFFFFF2)  returns 0x00000006 (0000ms, 0618ms total)
T4EC4 000:803 JLINK_Go() -- CPU_ReadMem(4 bytes @ 0xE0001000) (0001ms, 0619ms total)
T4EC4 000:804 JLINK_IsHalted()  returns FALSE (0000ms, 0619ms total)
T4EC4 000:809 JLINK_IsHalted()  returns FALSE (0000ms, 0619ms total)
T4EC4 000:812 JLINK_IsHalted()  returns FALSE (0000ms, 0619ms total)
T4EC4 000:814 JLINK_IsHalted()  returns FALSE (0000ms, 0619ms total)
T4EC4 000:816 JLINK_IsHalted()  returns FALSE (0000ms, 0619ms total)
T4EC4 000:819 JLINK_IsHalted()  returns FALSE (0000ms, 0619ms total)
T4EC4 000:821 JLINK_IsHalted()  returns FALSE (0000ms, 0619ms total)
T4EC4 000:823 JLINK_IsHalted()  returns FALSE (0000ms, 0619ms total)
T4EC4 000:825 JLINK_IsHalted()  returns FALSE (0000ms, 0619ms total)
T4EC4 000:828 JLINK_IsHalted()  returns FALSE (0000ms, 0619ms total)
T4EC4 000:830 JLINK_IsHalted()  returns FALSE (0000ms, 0619ms total)
T4EC4 000:832 JLINK_IsHalted()  returns FALSE (0000ms, 0619ms total)
T4EC4 000:835 JLINK_IsHalted()  returns FALSE (0000ms, 0619ms total)
T4EC4 000:837 JLINK_IsHalted()  returns FALSE (0000ms, 0619ms total)
T4EC4 000:846 JLINK_IsHalted()  returns FALSE (0000ms, 0619ms total)
T4EC4 000:848 JLINK_IsHalted()  returns FALSE (0000ms, 0619ms total)
T4EC4 000:851 JLINK_IsHalted()  returns FALSE (0000ms, 0619ms total)
T4EC4 000:853 JLINK_IsHalted()  returns FALSE (0000ms, 0619ms total)
T4EC4 000:855 JLINK_IsHalted()  returns FALSE (0000ms, 0619ms total)
T4EC4 000:857 JLINK_IsHalted()  returns FALSE (0000ms, 0619ms total)
T4EC4 000:860 JLINK_IsHalted()  returns FALSE (0000ms, 0619ms total)
T4EC4 000:862 JLINK_IsHalted() -- CPU_ReadMem(2 bytes @ 0x20000000)  returns TRUE (0002ms, 0621ms total)
T4EC4 000:864 JLINK_ReadReg(R15 (PC))  returns 0x20000000 (0000ms, 0619ms total)
T4EC4 000:864 JLINK_ClrBPEx(BPHandle = 0x00000006)  returns 0x00 (0000ms, 0619ms total)
T4EC4 000:864 JLINK_ReadReg(R0)  returns 0x00000000 (0000ms, 0619ms total)
T4EC4 000:864 JLINK_WriteReg(R0, 0x08020000)  returns 0x00 (0000ms, 0619ms total)
T4EC4 000:864 JLINK_WriteReg(R1, 0x00020000)  returns 0x00 (0000ms, 0619ms total)
T4EC4 000:864 JLINK_WriteReg(R2, 0x000000FF)  returns 0x00 (0000ms, 0619ms total)
T4EC4 000:864 JLINK_WriteReg(R3, 0x00000000)  returns 0x00 (0000ms, 0619ms total)
T4EC4 000:864 JLINK_WriteReg(R4, 0x00000000)  returns 0x00 (0000ms, 0619ms total)
T4EC4 000:864 JLINK_WriteReg(R5, 0x00000000)  returns 0x00 (0000ms, 0619ms total)
T4EC4 000:865 JLINK_WriteReg(R6, 0x00000000)  returns 0x00 (0000ms, 0619ms total)
T4EC4 000:865 JLINK_WriteReg(R7, 0x00000000)  returns 0x00 (0000ms, 0619ms total)
T4EC4 000:865 JLINK_WriteReg(R8, 0x00000000)  returns 0x00 (0000ms, 0619ms total)
T4EC4 000:865 JLINK_WriteReg(R9, 0x2000017C)  returns 0x00 (0000ms, 0619ms total)
T4EC4 000:865 JLINK_WriteReg(R10, 0x00000000)  returns 0x00 (0000ms, 0619ms total)
T4EC4 000:865 JLINK_WriteReg(R11, 0x00000000)  returns 0x00 (0000ms, 0619ms total)
T4EC4 000:865 JLINK_WriteReg(R12, 0x00000000)  returns 0x00 (0000ms, 0619ms total)
T4EC4 000:865 JLINK_WriteReg(R13 (SP), 0x20001000)  returns 0x00 (0000ms, 0619ms total)
T4EC4 000:865 JLINK_WriteReg(R14, 0x20000001)  returns 0x00 (0000ms, 0619ms total)
T4EC4 000:865 JLINK_WriteReg(R15 (PC), 0x20000020)  returns 0x00 (0000ms, 0619ms total)
T4EC4 000:865 JLINK_WriteReg(XPSR, 0x01000000)  returns 0x00 (0000ms, 0619ms total)
T4EC4 000:865 JLINK_WriteReg(MSP, 0x20001000)  returns 0x00 (0000ms, 0619ms total)
T4EC4 000:865 JLINK_WriteReg(PSP, 0x20001000)  returns 0x00 (0000ms, 0619ms total)
T4EC4 000:865 JLINK_WriteReg(CFBP, 0x00000000)  returns 0x00 (0000ms, 0619ms total)
T4EC4 000:865 JLINK_SetBPEx(Addr = 0x20000000, Type = 0xFFFFFFF2)  returns 0x00000007 (0000ms, 0619ms total)
T4EC4 000:865 JLINK_Go() -- CPU_ReadMem(4 bytes @ 0xE0001000) (0001ms, 0620ms total)
T4EC4 000:866 JLINK_IsHalted()  returns FALSE (0000ms, 0620ms total)
T4EC4 000:868 JLINK_IsHalted()  returns FALSE (0000ms, 0620ms total)
T4EC4 000:870 JLINK_IsHalted()  returns FALSE (0000ms, 0620ms total)
T4EC4 000:872 JLINK_IsHalted()  returns FALSE (0000ms, 0620ms total)
T4EC4 000:875 JLINK_IsHalted()  returns FALSE (0000ms, 0620ms total)
T4EC4 000:877 JLINK_IsHalted()  returns FALSE (0000ms, 0620ms total)
T4EC4 000:879 JLINK_IsHalted()  returns FALSE (0000ms, 0620ms total)
T4EC4 000:881 JLINK_IsHalted()  returns FALSE (0000ms, 0620ms total)
T4EC4 000:884 JLINK_IsHalted()  returns FALSE (0000ms, 0620ms total)
T4EC4 000:886 JLINK_IsHalted()  returns FALSE (0000ms, 0620ms total)
T4EC4 000:888 JLINK_IsHalted()  returns FALSE (0000ms, 0620ms total)
T4EC4 000:891 JLINK_IsHalted()  returns FALSE (0000ms, 0620ms total)
T4EC4 000:893 JLINK_IsHalted()  returns FALSE (0000ms, 0620ms total)
T4EC4 000:895 JLINK_IsHalted()  returns FALSE (0000ms, 0620ms total)
T4EC4 000:897 JLINK_IsHalted()  returns FALSE (0000ms, 0620ms total)
T4EC4 000:899 JLINK_IsHalted()  returns FALSE (0000ms, 0620ms total)
T4EC4 000:901 JLINK_IsHalted()  returns FALSE (0000ms, 0620ms total)
T4EC4 000:902 JLINK_IsHalted()  returns FALSE (0000ms, 0620ms total)
T4EC4 000:904 JLINK_IsHalted()  returns FALSE (0000ms, 0620ms total)
T4EC4 000:905 JLINK_IsHalted()  returns FALSE (0000ms, 0620ms total)
T4EC4 000:908 JLINK_IsHalted()  returns FALSE (0000ms, 0620ms total)
T4EC4 000:909 JLINK_IsHalted()  returns FALSE (0000ms, 0620ms total)
T4EC4 000:911 JLINK_IsHalted()  returns FALSE (0000ms, 0620ms total)
T4EC4 000:912 JLINK_IsHalted()  returns FALSE (0000ms, 0620ms total)
T4EC4 000:916 JLINK_IsHalted()  returns FALSE (0000ms, 0620ms total)
T4EC4 000:918 JLINK_IsHalted()  returns FALSE (0000ms, 0620ms total)
T4EC4 000:920 JLINK_IsHalted()  returns FALSE (0000ms, 0620ms total)
T4EC4 000:923 JLINK_IsHalted()  returns FALSE (0000ms, 0620ms total)
T4EC4 000:925 JLINK_IsHalted()  returns FALSE (0000ms, 0620ms total)
T4EC4 000:927 JLINK_IsHalted()  returns FALSE (0000ms, 0620ms total)
T4EC4 000:929 JLINK_IsHalted()  returns FALSE (0000ms, 0620ms total)
T4EC4 000:931 JLINK_IsHalted()  returns FALSE (0000ms, 0620ms total)
T4EC4 000:933 JLINK_IsHalted()  returns FALSE (0000ms, 0620ms total)
T4EC4 000:935 JLINK_IsHalted()  returns FALSE (0000ms, 0620ms total)
T4EC4 000:937 JLINK_IsHalted()  returns FALSE (0000ms, 0620ms total)
T4EC4 000:940 JLINK_IsHalted()  returns FALSE (0000ms, 0620ms total)
T4EC4 000:942 JLINK_IsHalted()  returns FALSE (0000ms, 0620ms total)
T4EC4 000:943 JLINK_IsHalted()  returns FALSE (0000ms, 0620ms total)
T4EC4 000:945 JLINK_IsHalted()  returns FALSE (0000ms, 0620ms total)
T4EC4 000:953 JLINK_IsHalted()  returns FALSE (0000ms, 0620ms total)
T4EC4 000:956 JLINK_IsHalted()  returns FALSE (0000ms, 0620ms total)
T4EC4 000:958 JLINK_IsHalted()  returns FALSE (0000ms, 0620ms total)
T4EC4 000:960 JLINK_IsHalted()  returns FALSE (0000ms, 0620ms total)
T4EC4 000:962 JLINK_IsHalted()  returns FALSE (0000ms, 0620ms total)
T4EC4 000:964 JLINK_IsHalted()  returns FALSE (0000ms, 0620ms total)
T4EC4 000:966 JLINK_IsHalted()  returns FALSE (0000ms, 0620ms total)
T4EC4 000:968 JLINK_IsHalted()  returns FALSE (0000ms, 0620ms total)
T4EC4 000:971 JLINK_IsHalted()  returns FALSE (0000ms, 0620ms total)
T4EC4 000:973 JLINK_IsHalted()  returns FALSE (0000ms, 0620ms total)
T4EC4 000:975 JLINK_IsHalted()  returns FALSE (0000ms, 0620ms total)
T4EC4 000:977 JLINK_IsHalted()  returns FALSE (0000ms, 0620ms total)
T4EC4 000:980 JLINK_IsHalted()  returns FALSE (0000ms, 0620ms total)
T4EC4 000:982 JLINK_IsHalted() -- CPU_ReadMem(2 bytes @ 0x20000000)  returns TRUE (0002ms, 0622ms total)
T4EC4 000:984 JLINK_ReadReg(R15 (PC))  returns 0x20000000 (0000ms, 0620ms total)
T4EC4 000:984 JLINK_ClrBPEx(BPHandle = 0x00000007)  returns 0x00 (0000ms, 0620ms total)
T4EC4 000:984 JLINK_ReadReg(R0)  returns 0x00000000 (0000ms, 0620ms total)
T4EC4 000:985 JLINK_WriteReg(R0, 0x08040000)  returns 0x00 (0000ms, 0620ms total)
T4EC4 000:985 JLINK_WriteReg(R1, 0x00020000)  returns 0x00 (0000ms, 0620ms total)
T4EC4 000:985 JLINK_WriteReg(R2, 0x000000FF)  returns 0x00 (0000ms, 0620ms total)
T4EC4 000:985 JLINK_WriteReg(R3, 0x00000000)  returns 0x00 (0000ms, 0620ms total)
T4EC4 000:985 JLINK_WriteReg(R4, 0x00000000)  returns 0x00 (0000ms, 0620ms total)
T4EC4 000:985 JLINK_WriteReg(R5, 0x00000000)  returns 0x00 (0000ms, 0620ms total)
T4EC4 000:985 JLINK_WriteReg(R6, 0x00000000)  returns 0x00 (0000ms, 0620ms total)
T4EC4 000:985 JLINK_WriteReg(R7, 0x00000000)  returns 0x00 (0000ms, 0620ms total)
T4EC4 000:985 JLINK_WriteReg(R8, 0x00000000)  returns 0x00 (0000ms, 0620ms total)
T4EC4 000:985 JLINK_WriteReg(R9, 0x2000017C)  returns 0x00 (0000ms, 0620ms total)
T4EC4 000:985 JLINK_WriteReg(R10, 0x00000000)  returns 0x00 (0000ms, 0620ms total)
T4EC4 000:985 JLINK_WriteReg(R11, 0x00000000)  returns 0x00 (0000ms, 0620ms total)
T4EC4 000:985 JLINK_WriteReg(R12, 0x00000000)  returns 0x00 (0000ms, 0620ms total)
T4EC4 000:985 JLINK_WriteReg(R13 (SP), 0x20001000)  returns 0x00 (0000ms, 0620ms total)
T4EC4 000:985 JLINK_WriteReg(R14, 0x20000001)  returns 0x00 (0000ms, 0620ms total)
T4EC4 000:985 JLINK_WriteReg(R15 (PC), 0x20000020)  returns 0x00 (0000ms, 0620ms total)
T4EC4 000:985 JLINK_WriteReg(XPSR, 0x01000000)  returns 0x00 (0000ms, 0620ms total)
T4EC4 000:985 JLINK_WriteReg(MSP, 0x20001000)  returns 0x00 (0000ms, 0620ms total)
T4EC4 000:985 JLINK_WriteReg(PSP, 0x20001000)  returns 0x00 (0000ms, 0620ms total)
T4EC4 000:985 JLINK_WriteReg(CFBP, 0x00000000)  returns 0x00 (0000ms, 0620ms total)
T4EC4 000:985 JLINK_SetBPEx(Addr = 0x20000000, Type = 0xFFFFFFF2)  returns 0x00000008 (0000ms, 0620ms total)
T4EC4 000:985 JLINK_Go() -- CPU_ReadMem(4 bytes @ 0xE0001000) (0001ms, 0621ms total)
T4EC4 000:986 JLINK_IsHalted()  returns FALSE (0000ms, 0621ms total)
T4EC4 000:990 JLINK_IsHalted()  returns FALSE (0000ms, 0621ms total)
T4EC4 000:992 JLINK_IsHalted()  returns FALSE (0000ms, 0621ms total)
T4EC4 000:994 JLINK_IsHalted()  returns FALSE (0000ms, 0621ms total)
T4EC4 000:996 JLINK_IsHalted()  returns FALSE (0000ms, 0621ms total)
T4EC4 000:998 JLINK_IsHalted()  returns FALSE (0000ms, 0621ms total)
T4EC4 001:000 JLINK_IsHalted()  returns FALSE (0000ms, 0621ms total)
T4EC4 001:003 JLINK_IsHalted()  returns FALSE (0000ms, 0621ms total)
T4EC4 001:005 JLINK_IsHalted()  returns FALSE (0000ms, 0621ms total)
T4EC4 001:007 JLINK_IsHalted()  returns FALSE (0000ms, 0621ms total)
T4EC4 001:009 JLINK_IsHalted()  returns FALSE (0000ms, 0621ms total)
T4EC4 001:012 JLINK_IsHalted()  returns FALSE (0000ms, 0621ms total)
T4EC4 001:014 JLINK_IsHalted()  returns FALSE (0000ms, 0621ms total)
T4EC4 001:016 JLINK_IsHalted()  returns FALSE (0000ms, 0621ms total)
T4EC4 001:019 JLINK_IsHalted()  returns FALSE (0000ms, 0621ms total)
T4EC4 001:021 JLINK_IsHalted()  returns FALSE (0000ms, 0621ms total)
T4EC4 001:023 JLINK_IsHalted()  returns FALSE (0000ms, 0621ms total)
T4EC4 001:025 JLINK_IsHalted()  returns FALSE (0000ms, 0621ms total)
T4EC4 001:028 JLINK_IsHalted()  returns FALSE (0000ms, 0621ms total)
T4EC4 001:030 JLINK_IsHalted()  returns FALSE (0000ms, 0621ms total)
T4EC4 001:032 JLINK_IsHalted()  returns FALSE (0000ms, 0621ms total)
T4EC4 001:035 JLINK_IsHalted()  returns FALSE (0000ms, 0621ms total)
T4EC4 001:037 JLINK_IsHalted()  returns FALSE (0000ms, 0621ms total)
T4EC4 001:039 JLINK_IsHalted()  returns FALSE (0000ms, 0621ms total)
T4EC4 001:041 JLINK_IsHalted()  returns FALSE (0000ms, 0621ms total)
T4EC4 001:044 JLINK_IsHalted()  returns FALSE (0000ms, 0621ms total)
T4EC4 001:046 JLINK_IsHalted()  returns FALSE (0000ms, 0621ms total)
T4EC4 001:048 JLINK_IsHalted()  returns FALSE (0000ms, 0621ms total)
T4EC4 001:054 JLINK_IsHalted()  returns FALSE (0000ms, 0621ms total)
T4EC4 001:056 JLINK_IsHalted()  returns FALSE (0000ms, 0621ms total)
T4EC4 001:059 JLINK_IsHalted()  returns FALSE (0000ms, 0621ms total)
T4EC4 001:061 JLINK_IsHalted()  returns FALSE (0000ms, 0621ms total)
T4EC4 001:063 JLINK_IsHalted()  returns FALSE (0000ms, 0621ms total)
T4EC4 001:065 JLINK_IsHalted()  returns FALSE (0000ms, 0621ms total)
T4EC4 001:068 JLINK_IsHalted()  returns FALSE (0000ms, 0621ms total)
T4EC4 001:070 JLINK_IsHalted()  returns FALSE (0000ms, 0621ms total)
T4EC4 001:072 JLINK_IsHalted()  returns FALSE (0000ms, 0621ms total)
T4EC4 001:075 JLINK_IsHalted()  returns FALSE (0000ms, 0621ms total)
T4EC4 001:077 JLINK_IsHalted()  returns FALSE (0000ms, 0621ms total)
T4EC4 001:079 JLINK_IsHalted()  returns FALSE (0000ms, 0621ms total)
T4EC4 001:081 JLINK_IsHalted()  returns FALSE (0000ms, 0621ms total)
T4EC4 001:085 JLINK_IsHalted()  returns FALSE (0000ms, 0621ms total)
T4EC4 001:087 JLINK_IsHalted()  returns FALSE (0000ms, 0621ms total)
T4EC4 001:089 JLINK_IsHalted()  returns FALSE (0000ms, 0621ms total)
T4EC4 001:092 JLINK_IsHalted()  returns FALSE (0000ms, 0621ms total)
T4EC4 001:094 JLINK_IsHalted()  returns FALSE (0000ms, 0621ms total)
T4EC4 001:096 JLINK_IsHalted()  returns FALSE (0000ms, 0621ms total)
T4EC4 001:099 JLINK_IsHalted()  returns FALSE (0000ms, 0621ms total)
T4EC4 001:101 JLINK_IsHalted() -- CPU_ReadMem(2 bytes @ 0x20000000)  returns TRUE (0002ms, 0623ms total)
T4EC4 001:103 JLINK_ReadReg(R15 (PC))  returns 0x20000000 (0000ms, 0621ms total)
T4EC4 001:103 JLINK_ClrBPEx(BPHandle = 0x00000008)  returns 0x00 (0000ms, 0621ms total)
T4EC4 001:103 JLINK_ReadReg(R0)  returns 0x00000000 (0000ms, 0621ms total)
T4EC4 001:104 JLINK_WriteReg(R0, 0x00000001)  returns 0x00 (0000ms, 0621ms total)
T4EC4 001:104 JLINK_WriteReg(R1, 0x00020000)  returns 0x00 (0000ms, 0621ms total)
T4EC4 001:104 JLINK_WriteReg(R2, 0x000000FF)  returns 0x00 (0000ms, 0621ms total)
T4EC4 001:104 JLINK_WriteReg(R3, 0x00000000)  returns 0x00 (0000ms, 0621ms total)
T4EC4 001:104 JLINK_WriteReg(R4, 0x00000000)  returns 0x00 (0000ms, 0621ms total)
T4EC4 001:104 JLINK_WriteReg(R5, 0x00000000)  returns 0x00 (0000ms, 0621ms total)
T4EC4 001:104 JLINK_WriteReg(R6, 0x00000000)  returns 0x00 (0000ms, 0621ms total)
T4EC4 001:104 JLINK_WriteReg(R7, 0x00000000)  returns 0x00 (0000ms, 0621ms total)
T4EC4 001:104 JLINK_WriteReg(R8, 0x00000000)  returns 0x00 (0000ms, 0621ms total)
T4EC4 001:104 JLINK_WriteReg(R9, 0x2000017C)  returns 0x00 (0000ms, 0621ms total)
T4EC4 001:104 JLINK_WriteReg(R10, 0x00000000)  returns 0x00 (0000ms, 0621ms total)
T4EC4 001:104 JLINK_WriteReg(R11, 0x00000000)  returns 0x00 (0000ms, 0621ms total)
T4EC4 001:104 JLINK_WriteReg(R12, 0x00000000)  returns 0x00 (0000ms, 0621ms total)
T4EC4 001:104 JLINK_WriteReg(R13 (SP), 0x20001000)  returns 0x00 (0000ms, 0621ms total)
T4EC4 001:104 JLINK_WriteReg(R14, 0x20000001)  returns 0x00 (0001ms, 0622ms total)
T4EC4 001:105 JLINK_WriteReg(R15 (PC), 0x20000082)  returns 0x00 (0000ms, 0622ms total)
T4EC4 001:105 JLINK_WriteReg(XPSR, 0x01000000)  returns 0x00 (0000ms, 0622ms total)
T4EC4 001:105 JLINK_WriteReg(MSP, 0x20001000)  returns 0x00 (0000ms, 0622ms total)
T4EC4 001:105 JLINK_WriteReg(PSP, 0x20001000)  returns 0x00 (0000ms, 0622ms total)
T4EC4 001:105 JLINK_WriteReg(CFBP, 0x00000000)  returns 0x00 (0000ms, 0622ms total)
T4EC4 001:105 JLINK_SetBPEx(Addr = 0x20000000, Type = 0xFFFFFFF2)  returns 0x00000009 (0000ms, 0622ms total)
T4EC4 001:105 JLINK_Go() -- CPU_ReadMem(4 bytes @ 0xE0001000) (0001ms, 0623ms total)
T4EC4 001:106 JLINK_IsHalted() -- CPU_ReadMem(2 bytes @ 0x20000000)  returns TRUE (0002ms, 0625ms total)
T4EC4 001:108 JLINK_ReadReg(R15 (PC))  returns 0x20000000 (0000ms, 0623ms total)
T4EC4 001:108 JLINK_ClrBPEx(BPHandle = 0x00000009)  returns 0x00 (0000ms, 0623ms total)
T4EC4 001:108 JLINK_ReadReg(R0)  returns 0x00000000 (0000ms, 0623ms total)
T4EC4 001:166 JLINK_WriteMem(0x20000000, 0x0180 Bytes, ...) - Data: 00 BE 0A E0 0D 78 2D 06 68 40 08 24 40 00 00 D3 ... -- CPU_WriteMem(384 bytes @ 0x20000000)  returns 0x180 (0002ms, 0625ms total)
T4EC4 001:168 JLINK_WriteReg(R0, 0x08000000)  returns 0x00 (0000ms, 0625ms total)
T4EC4 001:168 JLINK_WriteReg(R1, 0x00B71B00)  returns 0x00 (0000ms, 0625ms total)
T4EC4 001:168 JLINK_WriteReg(R2, 0x00000002)  returns 0x00 (0000ms, 0625ms total)
T4EC4 001:168 JLINK_WriteReg(R3, 0x00000000)  returns 0x00 (0000ms, 0625ms total)
T4EC4 001:168 JLINK_WriteReg(R4, 0x00000000)  returns 0x00 (0000ms, 0625ms total)
T4EC4 001:168 JLINK_WriteReg(R5, 0x00000000)  returns 0x00 (0000ms, 0625ms total)
T4EC4 001:168 JLINK_WriteReg(R6, 0x00000000)  returns 0x00 (0000ms, 0625ms total)
T4EC4 001:168 JLINK_WriteReg(R7, 0x00000000)  returns 0x00 (0000ms, 0625ms total)
T4EC4 001:168 JLINK_WriteReg(R8, 0x00000000)  returns 0x00 (0000ms, 0625ms total)
T4EC4 001:168 JLINK_WriteReg(R9, 0x2000017C)  returns 0x00 (0000ms, 0625ms total)
T4EC4 001:168 JLINK_WriteReg(R10, 0x00000000)  returns 0x00 (0000ms, 0625ms total)
T4EC4 001:168 JLINK_WriteReg(R11, 0x00000000)  returns 0x00 (0000ms, 0625ms total)
T4EC4 001:168 JLINK_WriteReg(R12, 0x00000000)  returns 0x00 (0000ms, 0625ms total)
T4EC4 001:168 JLINK_WriteReg(R13 (SP), 0x20001000)  returns 0x00 (0000ms, 0625ms total)
T4EC4 001:168 JLINK_WriteReg(R14, 0x20000001)  returns 0x00 (0000ms, 0625ms total)
T4EC4 001:168 JLINK_WriteReg(R15 (PC), 0x20000054)  returns 0x00 (0000ms, 0625ms total)
T4EC4 001:168 JLINK_WriteReg(XPSR, 0x01000000)  returns 0x00 (0000ms, 0625ms total)
T4EC4 001:168 JLINK_WriteReg(MSP, 0x20001000)  returns 0x00 (0000ms, 0625ms total)
T4EC4 001:168 JLINK_WriteReg(PSP, 0x20001000)  returns 0x00 (0000ms, 0625ms total)
T4EC4 001:169 JLINK_WriteReg(CFBP, 0x00000000)  returns 0x00 (0000ms, 0626ms total)
T4EC4 001:169 JLINK_SetBPEx(Addr = 0x20000000, Type = 0xFFFFFFF2) -- CPU_ReadMem(2 bytes @ 0x20000000)  returns 0x0000000A (0000ms, 0626ms total)
T4EC4 001:169 JLINK_Go() -- CPU_WriteMem(2 bytes @ 0x20000000) -- CPU_ReadMem(4 bytes @ 0xE0001000) (0001ms, 0627ms total)
T4EC4 001:170 JLINK_IsHalted() -- CPU_ReadMem(2 bytes @ 0x20000000)  returns TRUE (0002ms, 0629ms total)
T4EC4 001:172 JLINK_ReadReg(R15 (PC))  returns 0x20000000 (0000ms, 0627ms total)
T4EC4 001:172 JLINK_ClrBPEx(BPHandle = 0x0000000A)  returns 0x00 (0000ms, 0627ms total)
T4EC4 001:172 JLINK_ReadReg(R0)  returns 0x00000000 (0000ms, 0627ms total)
T4EC4 001:172 JLINK_WriteMem(0x20000180, 0x0400 Bytes, ...) - Data: E8 05 00 20 9D 01 00 08 D9 24 00 08 EB 08 00 08 ... -- CPU_WriteMem(1024 bytes @ 0x20000180)  returns 0x400 (0004ms, 0631ms total)
T4EC4 001:176 JLINK_WriteReg(R0, 0x08000000)  returns 0x00 (0000ms, 0631ms total)
T4EC4 001:176 JLINK_WriteReg(R1, 0x00000400)  returns 0x00 (0000ms, 0631ms total)
T4EC4 001:176 JLINK_WriteReg(R2, 0x20000180)  returns 0x00 (0000ms, 0631ms total)
T4EC4 001:176 JLINK_WriteReg(R3, 0x00000000)  returns 0x00 (0000ms, 0631ms total)
T4EC4 001:176 JLINK_WriteReg(R4, 0x00000000)  returns 0x00 (0000ms, 0631ms total)
T4EC4 001:176 JLINK_WriteReg(R5, 0x00000000)  returns 0x00 (0000ms, 0631ms total)
T4EC4 001:176 JLINK_WriteReg(R6, 0x00000000)  returns 0x00 (0000ms, 0631ms total)
T4EC4 001:176 JLINK_WriteReg(R7, 0x00000000)  returns 0x00 (0000ms, 0631ms total)
T4EC4 001:176 JLINK_WriteReg(R8, 0x00000000)  returns 0x00 (0000ms, 0631ms total)
T4EC4 001:176 JLINK_WriteReg(R9, 0x2000017C)  returns 0x00 (0000ms, 0631ms total)
T4EC4 001:176 JLINK_WriteReg(R10, 0x00000000)  returns 0x00 (0000ms, 0631ms total)
T4EC4 001:176 JLINK_WriteReg(R11, 0x00000000)  returns 0x00 (0000ms, 0631ms total)
T4EC4 001:176 JLINK_WriteReg(R12, 0x00000000)  returns 0x00 (0000ms, 0631ms total)
T4EC4 001:176 JLINK_WriteReg(R13 (SP), 0x20001000)  returns 0x00 (0000ms, 0631ms total)
T4EC4 001:176 JLINK_WriteReg(R14, 0x20000001)  returns 0x00 (0000ms, 0631ms total)
T4EC4 001:176 JLINK_WriteReg(R15 (PC), 0x20000108)  returns 0x00 (0001ms, 0632ms total)
T4EC4 001:177 JLINK_WriteReg(XPSR, 0x01000000)  returns 0x00 (0000ms, 0632ms total)
T4EC4 001:177 JLINK_WriteReg(MSP, 0x20001000)  returns 0x00 (0000ms, 0632ms total)
T4EC4 001:177 JLINK_WriteReg(PSP, 0x20001000)  returns 0x00 (0000ms, 0632ms total)
T4EC4 001:177 JLINK_WriteReg(CFBP, 0x00000000)  returns 0x00 (0000ms, 0632ms total)
T4EC4 001:177 JLINK_SetBPEx(Addr = 0x20000000, Type = 0xFFFFFFF2)  returns 0x0000000B (0000ms, 0632ms total)
T4EC4 001:177 JLINK_Go() -- CPU_ReadMem(4 bytes @ 0xE0001000) (0001ms, 0633ms total)
T4EC4 001:178 JLINK_IsHalted()  returns FALSE (0000ms, 0633ms total)
T4EC4 001:191 JLINK_IsHalted() -- CPU_ReadMem(2 bytes @ 0x20000000)  returns TRUE (0002ms, 0635ms total)
T4EC4 001:193 JLINK_ReadReg(R15 (PC))  returns 0x20000000 (0000ms, 0633ms total)
T4EC4 001:193 JLINK_ClrBPEx(BPHandle = 0x0000000B)  returns 0x00 (0000ms, 0633ms total)
T4EC4 001:193 JLINK_ReadReg(R0)  returns 0x00000000 (0000ms, 0633ms total)
T4EC4 001:193 JLINK_WriteMem(0x20000180, 0x0400 Bytes, ...) - Data: 04 F4 11 FA 0C F1 18 BF 01 21 21 43 08 43 A3 EB ... -- CPU_WriteMem(1024 bytes @ 0x20000180)  returns 0x400 (0004ms, 0637ms total)
T4EC4 001:197 JLINK_WriteReg(R0, 0x08000400)  returns 0x00 (0000ms, 0637ms total)
T4EC4 001:197 JLINK_WriteReg(R1, 0x00000400)  returns 0x00 (0000ms, 0637ms total)
T4EC4 001:197 JLINK_WriteReg(R2, 0x20000180)  returns 0x00 (0000ms, 0637ms total)
T4EC4 001:197 JLINK_WriteReg(R3, 0x00000000)  returns 0x00 (0000ms, 0637ms total)
T4EC4 001:197 JLINK_WriteReg(R4, 0x00000000)  returns 0x00 (0000ms, 0637ms total)
T4EC4 001:197 JLINK_WriteReg(R5, 0x00000000)  returns 0x00 (0000ms, 0637ms total)
T4EC4 001:197 JLINK_WriteReg(R6, 0x00000000)  returns 0x00 (0000ms, 0637ms total)
T4EC4 001:197 JLINK_WriteReg(R7, 0x00000000)  returns 0x00 (0000ms, 0637ms total)
T4EC4 001:197 JLINK_WriteReg(R8, 0x00000000)  returns 0x00 (0000ms, 0637ms total)
T4EC4 001:197 JLINK_WriteReg(R9, 0x2000017C)  returns 0x00 (0000ms, 0637ms total)
T4EC4 001:197 JLINK_WriteReg(R10, 0x00000000)  returns 0x00 (0000ms, 0637ms total)
T4EC4 001:197 JLINK_WriteReg(R11, 0x00000000)  returns 0x00 (0000ms, 0637ms total)
T4EC4 001:197 JLINK_WriteReg(R12, 0x00000000)  returns 0x00 (0000ms, 0637ms total)
T4EC4 001:198 JLINK_WriteReg(R13 (SP), 0x20001000)  returns 0x00 (0000ms, 0637ms total)
T4EC4 001:198 JLINK_WriteReg(R14, 0x20000001)  returns 0x00 (0000ms, 0637ms total)
T4EC4 001:198 JLINK_WriteReg(R15 (PC), 0x20000108)  returns 0x00 (0000ms, 0637ms total)
T4EC4 001:198 JLINK_WriteReg(XPSR, 0x01000000)  returns 0x00 (0000ms, 0637ms total)
T4EC4 001:198 JLINK_WriteReg(MSP, 0x20001000)  returns 0x00 (0000ms, 0637ms total)
T4EC4 001:198 JLINK_WriteReg(PSP, 0x20001000)  returns 0x00 (0000ms, 0637ms total)
T4EC4 001:198 JLINK_WriteReg(CFBP, 0x00000000)  returns 0x00 (0000ms, 0637ms total)
T4EC4 001:198 JLINK_SetBPEx(Addr = 0x20000000, Type = 0xFFFFFFF2)  returns 0x0000000C (0000ms, 0637ms total)
T4EC4 001:198 JLINK_Go() -- CPU_ReadMem(4 bytes @ 0xE0001000) (0001ms, 0638ms total)
T4EC4 001:199 JLINK_IsHalted()  returns FALSE (0000ms, 0638ms total)
T4EC4 001:204 JLINK_IsHalted() -- CPU_ReadMem(2 bytes @ 0x20000000)  returns TRUE (0002ms, 0640ms total)
T4EC4 001:206 JLINK_ReadReg(R15 (PC))  returns 0x20000000 (0000ms, 0638ms total)
T4EC4 001:206 JLINK_ClrBPEx(BPHandle = 0x0000000C)  returns 0x00 (0000ms, 0638ms total)
T4EC4 001:206 JLINK_ReadReg(R0)  returns 0x00000000 (0000ms, 0638ms total)
T4EC4 001:206 JLINK_WriteMem(0x20000180, 0x0400 Bytes, ...) - Data: 00 23 00 24 00 BF 3D E0 01 25 05 FA 01 F3 15 68 ... -- CPU_WriteMem(1024 bytes @ 0x20000180)  returns 0x400 (0004ms, 0642ms total)
T4EC4 001:210 JLINK_WriteReg(R0, 0x08000800)  returns 0x00 (0000ms, 0642ms total)
T4EC4 001:210 JLINK_WriteReg(R1, 0x00000400)  returns 0x00 (0000ms, 0642ms total)
T4EC4 001:210 JLINK_WriteReg(R2, 0x20000180)  returns 0x00 (0000ms, 0642ms total)
T4EC4 001:210 JLINK_WriteReg(R3, 0x00000000)  returns 0x00 (0000ms, 0642ms total)
T4EC4 001:210 JLINK_WriteReg(R4, 0x00000000)  returns 0x00 (0000ms, 0642ms total)
T4EC4 001:210 JLINK_WriteReg(R5, 0x00000000)  returns 0x00 (0000ms, 0642ms total)
T4EC4 001:210 JLINK_WriteReg(R6, 0x00000000)  returns 0x00 (0000ms, 0642ms total)
T4EC4 001:210 JLINK_WriteReg(R7, 0x00000000)  returns 0x00 (0000ms, 0642ms total)
T4EC4 001:210 JLINK_WriteReg(R8, 0x00000000)  returns 0x00 (0000ms, 0642ms total)
T4EC4 001:210 JLINK_WriteReg(R9, 0x2000017C)  returns 0x00 (0000ms, 0642ms total)
T4EC4 001:210 JLINK_WriteReg(R10, 0x00000000)  returns 0x00 (0000ms, 0642ms total)
T4EC4 001:210 JLINK_WriteReg(R11, 0x00000000)  returns 0x00 (0000ms, 0642ms total)
T4EC4 001:210 JLINK_WriteReg(R12, 0x00000000)  returns 0x00 (0000ms, 0642ms total)
T4EC4 001:210 JLINK_WriteReg(R13 (SP), 0x20001000)  returns 0x00 (0000ms, 0642ms total)
T4EC4 001:210 JLINK_WriteReg(R14, 0x20000001)  returns 0x00 (0000ms, 0642ms total)
T4EC4 001:210 JLINK_WriteReg(R15 (PC), 0x20000108)  returns 0x00 (0000ms, 0642ms total)
T4EC4 001:210 JLINK_WriteReg(XPSR, 0x01000000)  returns 0x00 (0001ms, 0643ms total)
T4EC4 001:211 JLINK_WriteReg(MSP, 0x20001000)  returns 0x00 (0000ms, 0643ms total)
T4EC4 001:211 JLINK_WriteReg(PSP, 0x20001000)  returns 0x00 (0000ms, 0643ms total)
T4EC4 001:211 JLINK_WriteReg(CFBP, 0x00000000)  returns 0x00 (0000ms, 0643ms total)
T4EC4 001:211 JLINK_SetBPEx(Addr = 0x20000000, Type = 0xFFFFFFF2)  returns 0x0000000D (0000ms, 0643ms total)
T4EC4 001:211 JLINK_Go() -- CPU_ReadMem(4 bytes @ 0xE0001000) (0001ms, 0644ms total)
T4EC4 001:212 JLINK_IsHalted()  returns FALSE (0000ms, 0644ms total)
T4EC4 001:215 JLINK_IsHalted()  returns FALSE (0000ms, 0644ms total)
T4EC4 001:217 JLINK_IsHalted() -- CPU_ReadMem(2 bytes @ 0x20000000)  returns TRUE (0002ms, 0646ms total)
T4EC4 001:219 JLINK_ReadReg(R15 (PC))  returns 0x20000000 (0000ms, 0644ms total)
T4EC4 001:219 JLINK_ClrBPEx(BPHandle = 0x0000000D)  returns 0x00 (0000ms, 0644ms total)
T4EC4 001:219 JLINK_ReadReg(R0)  returns 0x00000000 (0000ms, 0644ms total)
T4EC4 001:219 JLINK_WriteMem(0x20000180, 0x0400 Bytes, ...) - Data: 83 FA 01 F0 FB FB 00 BF 02 E0 04 48 04 80 76 1C ... -- CPU_WriteMem(1024 bytes @ 0x20000180)  returns 0x400 (0004ms, 0648ms total)
T4EC4 001:223 JLINK_WriteReg(R0, 0x08000C00)  returns 0x00 (0000ms, 0648ms total)
T4EC4 001:223 JLINK_WriteReg(R1, 0x00000400)  returns 0x00 (0000ms, 0648ms total)
T4EC4 001:223 JLINK_WriteReg(R2, 0x20000180)  returns 0x00 (0000ms, 0648ms total)
T4EC4 001:223 JLINK_WriteReg(R3, 0x00000000)  returns 0x00 (0000ms, 0648ms total)
T4EC4 001:223 JLINK_WriteReg(R4, 0x00000000)  returns 0x00 (0000ms, 0648ms total)
T4EC4 001:223 JLINK_WriteReg(R5, 0x00000000)  returns 0x00 (0001ms, 0649ms total)
T4EC4 001:224 JLINK_WriteReg(R6, 0x00000000)  returns 0x00 (0000ms, 0649ms total)
T4EC4 001:224 JLINK_WriteReg(R7, 0x00000000)  returns 0x00 (0000ms, 0649ms total)
T4EC4 001:224 JLINK_WriteReg(R8, 0x00000000)  returns 0x00 (0000ms, 0649ms total)
T4EC4 001:224 JLINK_WriteReg(R9, 0x2000017C)  returns 0x00 (0000ms, 0649ms total)
T4EC4 001:224 JLINK_WriteReg(R10, 0x00000000)  returns 0x00 (0000ms, 0649ms total)
T4EC4 001:224 JLINK_WriteReg(R11, 0x00000000)  returns 0x00 (0000ms, 0649ms total)
T4EC4 001:224 JLINK_WriteReg(R12, 0x00000000)  returns 0x00 (0000ms, 0649ms total)
T4EC4 001:224 JLINK_WriteReg(R13 (SP), 0x20001000)  returns 0x00 (0000ms, 0649ms total)
T4EC4 001:224 JLINK_WriteReg(R14, 0x20000001)  returns 0x00 (0000ms, 0649ms total)
T4EC4 001:224 JLINK_WriteReg(R15 (PC), 0x20000108)  returns 0x00 (0000ms, 0649ms total)
